[rbk] WRITE reg=4 v=f5 ismMode=1
[rbk] READ reg=12 ismMode=1 ISM-> f5 (phases=f5)
[rbk] WRITE reg=4 v=f6 ismMode=1
[rbk] READ reg=12 ismMode=1 ISM-> f6 (phases=f6)
[rbk] WRITE reg=4 v=f7 ismMode=1
[rbk] READ reg=12 ismMode=1 ISM-> f7 (phases=f7)
[rbk] WRITE reg=4 v=ff ismMode=1
[rbk] READ reg=12 ismMode=1 ISM-> ff (phases=ff)
[rbk] WRITE reg=4 v=fe ismMode=1
[rbk] READ reg=12 ismMode=1 ISM-> fe (phases=fe)
[rbk] WRITE reg=4 v=fd ismMode=1
[rbk] READ reg=12 ismMode=1 ISM-> fd (phases=fd)
[rbk] WRITE reg=4 v=fc ismMode=1
[rbk] READ reg=12 ismMode=1 ISM-> fc (phases=fc)
[rbk] WRITE reg=4 v=fb ismMode=1
[rbk] READ reg=12 ismMode=1 ISM-> fb (phases=fb)
[rbk] WRITE reg=4 v=fa ismMode=1
[rbk] READ reg=12 ismMode=1 ISM-> fa (phases=fa)
[rbk] WRITE reg=4 v=f9 ismMode=1
[rbk] READ reg=12 ismMode=1 ISM-> f9 (phases=f9)
[rbk] WRITE reg=4 v=f8 ismMode=1
[rbk] READ reg=12 ismMode=1 ISM-> f8 (phases=f8)
[rbk] WRITE reg=4 v=f7 ismMode=1
[rbk] READ reg=12 ismMode=1 ISM-> f7 (phases=f7)
[rbk] WRITE reg=4 v=f6 ismMode=1
[rbk] READ reg=12 ismMode=1 ISM-> f6 (phases=f6)
[rbk] WRITE reg=4 v=f5 ismMode=1
[rbk] READ reg=12 ismMode=1 ISM-> f5 (phases=f5)
[rbk] WRITE reg=4 v=f4 ismMode=1
[rbk] READ reg=12 ismMode=1 ISM-> f4 (phases=f4)
[rbk] WRITE reg=4 v=f3 ismMode=1
[rbk] READ reg=12 ismMode=1 ISM-> f3 (phases=f3)
[rbk] WRITE reg=4 v=f2 ismMode=1
[rbk] READ reg=12 ismMode=1 ISM-> f2 (phases=f2)
[rbk] WRITE reg=4 v=f1 ismMode=1
[rbk] READ reg=12 ismMode=1 ISM-> f1 (phases=f1)
[rbk] WRITE reg=4 v=f0 ismMode=1
[rbk] READ reg=12 ismMode=1 ISM-> f0 (phases=f0)
[rbk] READ reg=12 ismMode=0 IWM-> ff
[rbk] READ reg=12 ismMode=0 IWM-> ff
[rbk] WRITE reg=4 v=f5 ismMode=1
[rbk] READ reg=12 ismMode=1 ISM-> f5 (phases=f5)
[rbk] WRITE reg=4 v=f6 ismMode=1
[rbk] READ reg=12 ismMode=1 ISM-> f6 (phases=f6)
[rbk] WRITE reg=4 v=f7 ismMode=1
[rbk] READ reg=12 ismMode=1 ISM-> f7 (phases=f7)
[rbk] READ reg=12 ismMode=0 IWM-> ff
[rbk] READ reg=12 ismMode=0 IWM-> 00
[rbk] READ reg=12 ismMode=0 IWM-> 00
[rbk] READ reg=12 ismMode=0 IWM-> 00
[rbk] READ reg=12 ismMode=0 IWM-> 00
[rbk] READ reg=12 ismMode=0 IWM-> 00
[rbk] READ reg=12 ismMode=0 IWM-> 00
[rbk] READ reg=12 ismMode=0 IWM-> 00
[rbk] READ reg=12 ismMode=0 IWM-> 00
[rbk] READ reg=12 ismMode=0 IWM-> 00
[rbk] READ reg=12 ismMode=0 IWM-> 00
[rbk] READ reg=12 ismMode=0 IWM-> 00
[rbk] READ reg=12 ismMode=0 IWM-> 00
[rbk] READ reg=12 ismMode=0 IWM-> 00
[rbk] READ reg=12 ismMode=0 IWM-> 00
[rbk] READ reg=12 ismMode=0 IWM-> 00
[rbk] READ reg=12 ismMode=0 IWM-> 00
[rbk] READ reg=12 ismMode=0 IWM-> 00
[rbk] READ reg=12 ismMode=0 IWM-> 00
[rbk] READ reg=4 ismMode=0 IWM-> 00
[rbk] READ reg=12 ismMode=0 IWM-> 00
[rbk] READ reg=4 ismMode=0 IWM-> 00
[rbk] READ reg=12 ismMode=0 IWM-> 00
[rbk] READ reg=4 ismMode=0 IWM-> 00
[rbk] READ reg=12 ismMode=0 IWM-> 00
[rbk] READ reg=4 ismMode=0 IWM-> 00
[rbk] READ reg=12 ismMode=0 IWM-> 00
[rbk] READ reg=4 ismMode=0 IWM-> 00
[rbk] READ reg=12 ismMode=0 IWM-> 00
[rbk] READ reg=4 ismMode=0 IWM-> 00
[rbk] READ reg=12 ismMode=0 IWM-> 00
[rbk] READ reg=4 ismMode=0 IWM-> 00
[rbk] READ reg=12 ismMode=0 IWM-> 00
[rbk] READ reg=4 ismMode=0 IWM-> 00
[rbk] READ reg=12 ismMode=0 IWM-> 00
[rbk] READ reg=12 ismMode=0 IWM-> ff
[rbk] READ reg=12 ismMode=0 IWM-> ff
[rbk] READ reg=12 ismMode=0 IWM-> ff
[rbk] READ reg=4 ismMode=0 IWM-> 00
[rbk] READ reg=12 ismMode=0 IWM-> 00
[rbk] READ reg=4 ismMode=0 IWM-> 00
[rbk] READ reg=12 ismMode=0 IWM-> 00
[rbk] READ reg=4 ismMode=0 IWM-> 00
[rbk] READ reg=12 ismMode=0 IWM-> 00
[rbk] READ reg=4 ismMode=0 IWM-> 00
[rbk] READ reg=12 ismMode=0 IWM-> 00
[rbk] READ reg=4 ismMode=0 IWM-> 00
[rbk] READ reg=12 ismMode=0 IWM-> 00
[rbk] READ reg=4 ismMode=0 IWM-> 00
[rbk] READ reg=12 ismMode=0 IWM-> 00
[rbk] READ reg=4 ismMode=0 IWM-> 00
[rbk] READ reg=12 ismMode=0 IWM-> 00
[rbk] READ reg=4 ismMode=0 IWM-> 00
[rbk] READ reg=12 ismMode=0 IWM-> 00
[rbk] READ reg=4 ismMode=0 IWM-> 00
[rbk] READ reg=12 ismMode=0 IWM-> 00
[rbk] READ reg=4 ismMode=0 IWM-> 00
[rbk] READ reg=12 ismMode=0 IWM-> 00
[rbk] READ reg=4 ismMode=0 IWM-> 00
[rbk] READ reg=12 ismMode=0 IWM-> 00
[rbk] READ reg=4 ismMode=0 IWM-> 00
[rbk] READ reg=12 ismMode=0 IWM-> 00
[rbk] READ reg=4 ismMode=0 IWM-> 00
[rbk] READ reg=12 ismMode=0 IWM-> 00
[rbk] READ reg=4 ismMode=0 IWM-> 00
[rbk] READ reg=12 ismMode=0 IWM-> 00
[rbk] READ reg=4 ismMode=0 IWM-> 00
[rbk] READ reg=12 ismMode=0 IWM-> 00
[rbk] READ reg=4 ismMode=0 IWM-> 00
[rbk] READ reg=12 ismMode=0 IWM-> 00
[rbk] READ reg=4 ismMode=0 IWM-> 00
[rbk] READ reg=12 ismMode=0 IWM-> 00
[rbk] READ reg=4 ismMode=0 IWM-> 00
[rbk] READ reg=12 ismMode=0 IWM-> 00
[rbk] READ reg=4 ismMode=0 IWM-> 00
[rbk] READ reg=12 ismMode=0 IWM-> 00
[rbk] READ reg=4 ismMode=0 IWM-> 00
[rbk] READ reg=12 ismMode=0 IWM-> 00
[rbk] READ reg=4 ismMode=0 IWM-> 00
[rbk] READ reg=12 ismMode=0 IWM-> 00
[rbk] READ reg=4 ismMode=0 IWM-> 00
[rbk] READ reg=12 ismMode=0 IWM-> 00
[rbk] READ reg=4 ismMode=0 IWM-> 00
[rbk] READ reg=12 ismMode=0 IWM-> 00
[rbk] READ reg=4 ismMode=0 IWM-> 00
[rbk] READ reg=12 ismMode=0 IWM-> 00
[rbk] READ reg=4 ismMode=0 IWM-> 00
[rbk] READ reg=12 ismMode=0 IWM-> 00
[rbk] READ reg=4 ismMode=0 IWM-> 00
[rbk] READ reg=12 ismMode=0 IWM-> 00
[rbk] READ reg=4 ismMode=0 IWM-> 00
[rbk] READ reg=12 ismMode=0 IWM-> 00
[rbk] READ reg=4 ismMode=0 IWM-> 00
[rbk] READ reg=12 ismMode=0 IWM-> 00
[rbk] READ reg=4 ismMode=0 IWM-> 00
[rbk] READ reg=12 ismMode=0 IWM-> 00
[rbk] READ reg=4 ismMode=0 IWM-> 00
[rbk] READ reg=12 ismMode=0 IWM-> 00
[rbk] READ reg=4 ismMode=0 IWM-> 00
[rbk] READ reg=12 ismMode=0 IWM-> 00
[rbk] READ reg=4 ismMode=0 IWM-> 00
[rbk] READ reg=12 ismMode=0 IWM-> 00
[rbk] READ reg=4 ismMode=0 IWM-> 00
[rbk] READ reg=12 ismMode=0 IWM-> 00
[rbk] READ reg=4 ismMode=0 IWM-> 00
[rbk] READ reg=12 ismMode=0 IWM-> 00
[rbk] READ reg=4 ismMode=0 IWM-> 00
[rbk] READ reg=12 ismMode=0 IWM-> 00
[rbk] READ reg=4 ismMode=0 IWM-> 00
[rbk] READ reg=12 ismMode=0 IWM-> 00
[rbk] READ reg=4 ismMode=0 IWM-> 00
[rbk] READ reg=12 ismMode=0 IWM-> 00
[rbk] READ reg=4 ismMode=0 IWM-> 00
[rbk] READ reg=12 ismMode=0 IWM-> 00
[rbk] READ reg=4 ismMode=0 IWM-> 00
[rbk] READ reg=12 ismMode=0 IWM-> 00
[rbk] READ reg=4 ismMode=0 IWM-> 00
[rbk] READ reg=12 ismMode=0 IWM-> 00
[rbk] READ reg=4 ismMode=0 IWM-> 00
[rbk] READ reg=12 ismMode=0 IWM-> 00
[rbk] READ reg=4 ismMode=0 IWM-> 00
[rbk] READ reg=12 ismMode=0 IWM-> 00
[rbk] READ reg=4 ismMode=0 IWM-> 00
[rbk] READ reg=12 ismMode=0 IWM-> 00
[rbk] READ reg=4 ismMode=0 IWM-> 00
[rbk] READ reg=12 ismMode=0 IWM-> 00
[rbk] READ reg=4 ismMode=0 IWM-> 00
[rbk] READ reg=12 ismMode=0 IWM-> 00
[rbk] READ reg=4 ismMode=0 IWM-> 00
[rbk] READ reg=12 ismMode=0 IWM-> 00
[rbk] READ reg=4 ismMode=0 IWM-> 00
[rbk] READ reg=12 ismMode=0 IWM-> 00
[rbk] READ reg=4 ismMode=0 IWM-> 00
[rbk] READ reg=12 ismMode=0 IWM-> 00
[rbk] READ reg=4 ismMode=0 IWM-> 00
[rbk] READ reg=12 ismMode=0 IWM-> 00
[rbk] READ reg=4 ismMode=0 IWM-> 00
[rbk] READ reg=12 ismMode=0 IWM-> 00
[rbk] READ reg=4 ismMode=0 IWM-> 00
[rbk] READ reg=12 ismMode=0 IWM-> 00
[rbk] READ reg=4 ismMode=0 IWM-> 00
[rbk] READ reg=12 ismMode=0 IWM-> 00
[rbk] READ reg=4 ismMode=0 IWM-> 00
[rbk] READ reg=12 ismMode=0 IWM-> 00
[rbk] READ reg=4 ismMode=0 IWM-> 00
[rbk] READ reg=12 ismMode=0 IWM-> 00
[rbk] READ reg=4 ismMode=0 IWM-> 00
[rbk] READ reg=12 ismMode=0 IWM-> 00
[rbk] READ reg=4 ismMode=0 IWM-> 00
[rbk] READ reg=12 ismMode=0 IWM-> 00
[rbk] READ reg=4 ismMode=0 IWM-> 00
[rbk] READ reg=12 ismMode=0 IWM-> 00
[rbk] READ reg=4 ismMode=0 IWM-> 00
[rbk] READ reg=12 ismMode=0 IWM-> 00
[rbk] READ reg=4 ismMode=0 IWM-> 00
[rbk] READ reg=12 ismMode=0 IWM-> 00
[rbk] READ reg=4 ismMode=0 IWM-> 00
[rbk] READ reg=12 ismMode=0 IWM-> 00
[rbk] READ reg=4 ismMode=0 IWM-> 00
[rbk] READ reg=12 ismMode=0 IWM-> 00
[rbk] READ reg=4 ismMode=0 IWM-> 00
[rbk] READ reg=12 ismMode=0 IWM-> 00
[rbk] READ reg=4 ismMode=0 IWM-> 00
[rbk] READ reg=12 ismMode=0 IWM-> 00
[rbk] READ reg=4 ismMode=0 IWM-> 00
[rbk] READ reg=12 ismMode=0 IWM-> 00
[rbk] READ reg=4 ismMode=0 IWM-> 00
[rbk] READ reg=12 ismMode=0 IWM-> 00
[rbk] READ reg=4 ismMode=0 IWM-> 00
[rbk] READ reg=12 ismMode=0 IWM-> 00
[rbk] READ reg=4 ismMode=0 IWM-> 00
[rbk] READ reg=12 ismMode=0 IWM-> 00
[rbk] READ reg=4 ismMode=0 IWM-> 00
[rbk] READ reg=12 ismMode=0 IWM-> 00
[rbk] READ reg=4 ismMode=0 IWM-> 00
[rbk] READ reg=12 ismMode=0 IWM-> 00
[rbk] READ reg=4 ismMode=0 IWM-> 00
[rbk] READ reg=12 ismMode=0 IWM-> 00
[rbk] READ reg=4 ismMode=0 IWM-> 00
[rbk] READ reg=12 ismMode=0 IWM-> 00
[rbk] READ reg=4 ismMode=0 IWM-> 00
[rbk] READ reg=12 ismMode=0 IWM-> 00
[rbk] READ reg=4 ismMode=0 IWM-> 00
[rbk] READ reg=12 ismMode=0 IWM-> 00
[rbk] READ reg=4 ismMode=0 IWM-> 00
[rbk] READ reg=12 ismMode=0 IWM-> 00
[rbk] READ reg=4 ismMode=0 IWM-> 00
[rbk] READ reg=12 ismMode=0 IWM-> 00
[rbk] READ reg=4 ismMode=0 IWM-> 00
[rbk] READ reg=12 ismMode=0 IWM-> 00
[rbk] READ reg=4 ismMode=0 IWM-> 00
[rbk] READ reg=12 ismMode=0 IWM-> 00
[rbk] READ reg=4 ismMode=0 IWM-> 00
[rbk] READ reg=12 ismMode=0 IWM-> 00
[rbk] READ reg=4 ismMode=0 IWM-> 00
[rbk] READ reg=12 ismMode=0 IWM-> 00
[rbk] READ reg=4 ismMode=0 IWM-> 00
[rbk] READ reg=12 ismMode=0 IWM-> 00
[rbk] READ reg=4 ismMode=0 IWM-> 00
[rbk] READ reg=12 ismMode=0 IWM-> 00
[rbk] READ reg=4 ismMode=0 IWM-> 00
[rbk] READ reg=12 ismMode=0 IWM-> 00
[rbk] READ reg=4 ismMode=0 IWM-> 00
[rbk] READ reg=12 ismMode=0 IWM-> 00
[rbk] READ reg=4 ismMode=0 IWM-> 00
[rbk] READ reg=12 ismMode=0 IWM-> 00
[rbk] READ reg=4 ismMode=0 IWM-> 00
[rbk] READ reg=12 ismMode=0 IWM-> 00
[rbk] READ reg=4 ismMode=0 IWM-> 00
[rbk] READ reg=12 ismMode=0 IWM-> 00
[rbk] READ reg=4 ismMode=0 IWM-> 00
[rbk] READ reg=12 ismMode=0 IWM-> 00
[rbk] READ reg=4 ismMode=0 IWM-> 00
[rbk] READ reg=12 ismMode=0 IWM-> 00
[rbk] READ reg=4 ismMode=0 IWM-> 00
[rbk] READ reg=12 ismMode=0 IWM-> 00
[rbk] READ reg=4 ismMode=0 IWM-> 00
[rbk] READ reg=12 ismMode=0 IWM-> 00
[rbk] READ reg=4 ismMode=0 IWM-> 00
[rbk] READ reg=12 ismMode=0 IWM-> 00
[rbk] READ reg=4 ismMode=0 IWM-> 00
[rbk] READ reg=12 ismMode=0 IWM-> 00
[rbk] READ reg=4 ismMode=0 IWM-> 00
[rbk] READ reg=12 ismMode=0 IWM-> 00
[rbk] READ reg=4 ismMode=0 IWM-> 00
[rbk] READ reg=12 ismMode=0 IWM-> 00
[rbk] READ reg=4 ismMode=0 IWM-> 00
[rbk] READ reg=12 ismMode=0 IWM-> 00
[rbk] READ reg=4 ismMode=0 IWM-> 00
[rbk] READ reg=12 ismMode=0 IWM-> 00
[rbk] READ reg=4 ismMode=0 IWM-> 00
[rbk] READ reg=12 ismMode=0 IWM-> 00
[rbk] READ reg=4 ismMode=0 IWM-> 00
[rbk] READ reg=12 ismMode=0 IWM-> 00
[rbk] READ reg=4 ismMode=0 IWM-> 00
[rbk] READ reg=12 ismMode=0 IWM-> 00
[rbk] READ reg=4 ismMode=0 IWM-> 00
[rbk] READ reg=12 ismMode=0 IWM-> 00
[rbk] READ reg=4 ismMode=0 IWM-> 00
[rbk] READ reg=12 ismMode=0 IWM-> 00
[rbk] READ reg=4 ismMode=0 IWM-> 00
[rbk] READ reg=12 ismMode=0 IWM-> 00
[rbk] READ reg=4 ismMode=0 IWM-> 00
[rbk] READ reg=12 ismMode=0 IWM-> 00
[rbk] READ reg=4 ismMode=0 IWM-> 00
[rbk] READ reg=12 ismMode=0 IWM-> 00
[rbk] READ reg=4 ismMode=0 IWM-> 00
[rbk] READ reg=12 ismMode=0 IWM-> 00
[rbk] READ reg=4 ismMode=0 IWM-> 00
[rbk] READ reg=12 ismMode=0 IWM-> 00
[rbk] READ reg=4 ismMode=0 IWM-> 00
[rbk] READ reg=12 ismMode=0 IWM-> 00
[rbk] READ reg=4 ismMode=0 IWM-> 00
[rbk] READ reg=12 ismMode=0 IWM-> 00
[rbk] READ reg=4 ismMode=0 IWM-> 00
[rbk] READ reg=12 ismMode=0 IWM-> 00
[rbk] READ reg=4 ismMode=0 IWM-> 00
[rbk] READ reg=12 ismMode=0 IWM-> 00
[rbk] READ reg=4 ismMode=0 IWM-> 00
[rbk] READ reg=12 ismMode=0 IWM-> 00
[rbk] READ reg=4 ismMode=0 IWM-> 00
[rbk] READ reg=12 ismMode=0 IWM-> 00
[rbk] READ reg=4 ismMode=0 IWM-> 00
[rbk] READ reg=12 ismMode=0 IWM-> 00
[rbk] READ reg=4 ismMode=0 IWM-> 00
[rbk] READ reg=12 ismMode=0 IWM-> 00
[rbk] READ reg=4 ismMode=0 IWM-> 00
[rbk] READ reg=12 ismMode=0 IWM-> 00
[rbk] READ reg=4 ismMode=0 IWM-> 00
[rbk] READ reg=12 ismMode=0 IWM-> 00
[rbk] READ reg=4 ismMode=0 IWM-> 00
[rbk] READ reg=12 ismMode=0 IWM-> 00
[rbk] READ reg=4 ismMode=0 IWM-> 00
[rbk] READ reg=12 ismMode=0 IWM-> 00
[rbk] READ reg=4 ismMode=0 IWM-> 00
[rbk] READ reg=12 ismMode=0 IWM-> 00
[rbk] READ reg=4 ismMode=0 IWM-> 00
[rbk] READ reg=12 ismMode=0 IWM-> 00
[rbk] READ reg=4 ismMode=0 IWM-> 00
[rbk] READ reg=12 ismMode=0 IWM-> 00
[rbk] READ reg=4 ismMode=0 IWM-> 00
[rbk] READ reg=12 ismMode=0 IWM-> 00
[rbk] READ reg=4 ismMode=0 IWM-> 00
[rbk] READ reg=12 ismMode=0 IWM-> 00
[rbk] READ reg=4 ismMode=0 IWM-> 00
[rbk] READ reg=12 ismMode=0 IWM-> 00
[rbk] READ reg=4 ismMode=0 IWM-> 00
[rbk] READ reg=12 ismMode=0 IWM-> 00
[rbk] READ reg=4 ismMode=0 IWM-> 00
[rbk] READ reg=12 ismMode=0 IWM-> 00
[rbk] READ reg=4 ismMode=0 IWM-> 00
[rbk] READ reg=12 ismMode=0 IWM-> 00
[rbk] READ reg=4 ismMode=0 IWM-> 00
[rbk] READ reg=12 ismMode=0 IWM-> 00
[rbk] READ reg=4 ismMode=0 IWM-> 00
[rbk] READ reg=12 ismMode=0 IWM-> 00
[rbk] READ reg=4 ismMode=0 IWM-> 00
[rbk] READ reg=12 ismMode=0 IWM-> 00
[rbk] READ reg=4 ismMode=0 IWM-> 00
[rbk] READ reg=12 ismMode=0 IWM-> 00
[rbk] READ reg=4 ismMode=0 IWM-> 00
[rbk] READ reg=12 ismMode=0 IWM-> 00
[rbk] READ reg=4 ismMode=0 IWM-> 00
[rbk] READ reg=12 ismMode=0 IWM-> 00
[rbk] READ reg=4 ismMode=0 IWM-> 00
[rbk] READ reg=12 ismMode=0 IWM-> 00
[rbk] READ reg=4 ismMode=0 IWM-> 00
[rbk] READ reg=12 ismMode=0 IWM-> 00
[rbk] READ reg=4 ismMode=0 IWM-> 00
[rbk] READ reg=12 ismMode=0 IWM-> 00
[rbk] READ reg=4 ismMode=0 IWM-> 00
[rbk] READ reg=12 ismMode=0 IWM-> 00
[rbk] READ reg=4 ismMode=0 IWM-> 00
[rbk] READ reg=12 ismMode=0 IWM-> 00
[rbk] READ reg=4 ismMode=0 IWM-> 00
[rbk] READ reg=12 ismMode=0 IWM-> 00
[rbk] READ reg=4 ismMode=0 IWM-> 00
[rbk] READ reg=12 ismMode=0 IWM-> 00
[rbk] READ reg=4 ismMode=0 IWM-> 00
[rbk] READ reg=12 ismMode=0 IWM-> 00
[rbk] READ reg=4 ismMode=0 IWM-> 00
[rbk] READ reg=12 ismMode=0 IWM-> 00
[rbk] READ reg=4 ismMode=0 IWM-> 00
[rbk] READ reg=12 ismMode=0 IWM-> 00
[rbk] READ reg=4 ismMode=0 IWM-> 00
[rbk] READ reg=12 ismMode=0 IWM-> 00
[rbk] READ reg=4 ismMode=0 IWM-> 00
[rbk] READ reg=12 ismMode=0 IWM-> 00
[rbk] READ reg=4 ismMode=0 IWM-> 00
[rbk] READ reg=12 ismMode=0 IWM-> 00
[rbk] READ reg=4 ismMode=0 IWM-> 00
[rbk] READ reg=12 ismMode=0 IWM-> 00
[rbk] READ reg=4 ismMode=0 IWM-> 00
[rbk] READ reg=12 ismMode=0 IWM-> 00
[rbk] READ reg=4 ismMode=0 IWM-> 00
[rbk] READ reg=12 ismMode=0 IWM-> 00
[rbk] READ reg=4 ismMode=0 IWM-> 00
[rbk] READ reg=12 ismMode=0 IWM-> 00
[rbk] READ reg=4 ismMode=0 IWM-> 00
[rbk] READ reg=12 ismMode=0 IWM-> 00
[rbk] READ reg=4 ismMode=0 IWM-> 00
[rbk] READ reg=12 ismMode=0 IWM-> 00
[rbk] READ reg=4 ismMode=0 IWM-> 00
[rbk] READ reg=12 ismMode=0 IWM-> 00
[rbk] READ reg=4 ismMode=0 IWM-> 00
[rbk] READ reg=12 ismMode=0 IWM-> 00
[rbk] READ reg=4 ismMode=0 IWM-> 00
[rbk] READ reg=12 ismMode=0 IWM-> 00
[rbk] READ reg=4 ismMode=0 IWM-> 00
[rbk] READ reg=12 ismMode=0 IWM-> 00
[rbk] READ reg=4 ismMode=0 IWM-> 00
[rbk] READ reg=12 ismMode=0 IWM-> 00
[rbk] READ reg=4 ismMode=0 IWM-> 00
[rbk] READ reg=12 ismMode=0 IWM-> 00
[rbk] READ reg=4 ismMode=0 IWM-> 00
[rbk] READ reg=12 ismMode=0 IWM-> 00
[rbk] READ reg=4 ismMode=0 IWM-> 00
[rbk] READ reg=12 ismMode=0 IWM-> 00
[rbk] READ reg=4 ismMode=0 IWM-> 00
[rbk] READ reg=12 ismMode=0 IWM-> 00
[rbk] READ reg=4 ismMode=0 IWM-> 00
[rbk] READ reg=12 ismMode=0 IWM-> 00
[rbk] READ reg=4 ismMode=0 IWM-> 00
[rbk] READ reg=12 ismMode=0 IWM-> 00
[rbk] READ reg=4 ismMode=0 IWM-> 00
[rbk] READ reg=12 ismMode=0 IWM-> 00
[rbk] READ reg=4 ismMode=0 IWM-> 00
[rbk] READ reg=12 ismMode=0 IWM-> 00
[rbk] READ reg=4 ismMode=0 IWM-> 00
[rbk] READ reg=12 ismMode=0 IWM-> 00
[rbk] READ reg=4 ismMode=0 IWM-> 00
[rbk] READ reg=12 ismMode=0 IWM-> 00
[rbk] READ reg=4 ismMode=0 IWM-> 00
[rbk] READ reg=12 ismMode=0 IWM-> 00
[rbk] READ reg=4 ismMode=0 IWM-> 00
[rbk] READ reg=12 ismMode=0 IWM-> 00
[rbk] READ reg=4 ismMode=0 IWM-> 00
[rbk] READ reg=12 ismMode=0 IWM-> 00
[rbk] READ reg=4 ismMode=0 IWM-> 00
[rbk] READ reg=12 ismMode=0 IWM-> 00
[rbk] READ reg=4 ismMode=0 IWM-> 00
[rbk] READ reg=12 ismMode=0 IWM-> 00
[rbk] READ reg=4 ismMode=0 IWM-> 00
[rbk] READ reg=12 ismMode=0 IWM-> 00
[rbk] READ reg=4 ismMode=0 IWM-> 00
[rbk] READ reg=12 ismMode=0 IWM-> 00
[rbk] READ reg=4 ismMode=0 IWM-> 00
[rbk] READ reg=12 ismMode=0 IWM-> 00
[rbk] READ reg=4 ismMode=0 IWM-> 00
[rbk] READ reg=12 ismMode=0 IWM-> 00
[rbk] READ reg=4 ismMode=0 IWM-> 00
[rbk] READ reg=12 ismMode=0 IWM-> 00
[rbk] READ reg=4 ismMode=0 IWM-> 00
[rbk] READ reg=12 ismMode=0 IWM-> 00
[rbk] READ reg=4 ismMode=0 IWM-> 00
[rbk] READ reg=12 ismMode=0 IWM-> 00
[rbk] READ reg=4 ismMode=0 IWM-> 00
[rbk] READ reg=12 ismMode=0 IWM-> 00
[rbk] READ reg=4 ismMode=0 IWM-> 00
[rbk] READ reg=12 ismMode=0 IWM-> 00
[rbk] READ reg=4 ismMode=0 IWM-> 00
[rbk] READ reg=12 ismMode=0 IWM-> 00
[rbk] READ reg=4 ismMode=0 IWM-> 00
[rbk] READ reg=12 ismMode=0 IWM-> 00
[rbk] READ reg=4 ismMode=0 IWM-> 00
[rbk] READ reg=12 ismMode=0 IWM-> 00
[rbk] READ reg=4 ismMode=0 IWM-> 00
[rbk] READ reg=12 ismMode=0 IWM-> 00
[rbk] READ reg=4 ismMode=0 IWM-> 00
[rbk] READ reg=12 ismMode=0 IWM-> 00
[rbk] READ reg=4 ismMode=0 IWM-> 00
[rbk] READ reg=12 ismMode=0 IWM-> 00
[rbk] READ reg=4 ismMode=0 IWM-> 00
[rbk] READ reg=12 ismMode=0 IWM-> 00
[rbk] READ reg=4 ismMode=0 IWM-> 00
[rbk] READ reg=12 ismMode=0 IWM-> 00
[rbk] READ reg=4 ismMode=0 IWM-> 00
[rbk] READ reg=12 ismMode=0 IWM-> 00
[rbk] READ reg=4 ismMode=0 IWM-> 00
[rbk] READ reg=12 ismMode=0 IWM-> 00
[rbk] READ reg=4 ismMode=0 IWM-> 00
[rbk] READ reg=12 ismMode=0 IWM-> 00
[rbk] READ reg=4 ismMode=0 IWM-> 00
[rbk] READ reg=12 ismMode=0 IWM-> 00
[rbk] READ reg=4 ismMode=0 IWM-> 00
[rbk] READ reg=12 ismMode=0 IWM-> 00
[rbk] READ reg=4 ismMode=0 IWM-> 00
[rbk] READ reg=12 ismMode=0 IWM-> 00
[rbk] READ reg=4 ismMode=0 IWM-> 00
[rbk] READ reg=12 ismMode=0 IWM-> 00
[rbk] READ reg=4 ismMode=0 IWM-> 00
[rbk] READ reg=12 ismMode=0 IWM-> 00
[rbk] READ reg=4 ismMode=0 IWM-> 00
[rbk] READ reg=12 ismMode=0 IWM-> 00
[rbk] READ reg=4 ismMode=0 IWM-> 00
[rbk] READ reg=12 ismMode=0 IWM-> 00
[rbk] READ reg=4 ismMode=0 IWM-> 00
[rbk] READ reg=12 ismMode=0 IWM-> 00
[rbk] READ reg=4 ismMode=0 IWM-> 00
[rbk] READ reg=12 ismMode=0 IWM-> 00
[rbk] READ reg=4 ismMode=0 IWM-> 00
[rbk] READ reg=12 ismMode=0 IWM-> 00
[rbk] READ reg=4 ismMode=0 IWM-> 00
[rbk] READ reg=12 ismMode=0 IWM-> 00
[rbk] READ reg=4 ismMode=0 IWM-> 00
[rbk] READ reg=12 ismMode=0 IWM-> 00
[rbk] READ reg=4 ismMode=0 IWM-> 00
[rbk] READ reg=12 ismMode=0 IWM-> 00
[rbk] READ reg=4 ismMode=0 IWM-> 00
[rbk] READ reg=12 ismMode=0 IWM-> 00
[rbk] READ reg=4 ismMode=0 IWM-> 00
[rbk] READ reg=12 ismMode=0 IWM-> 00
[rbk] READ reg=4 ismMode=0 IWM-> 00
[rbk] READ reg=12 ismMode=0 IWM-> 00
[rbk] READ reg=4 ismMode=0 IWM-> 00
[rbk] READ reg=12 ismMode=0 IWM-> 00
[rbk] READ reg=4 ismMode=0 IWM-> 00
[rbk] READ reg=12 ismMode=0 IWM-> 00
[rbk] READ reg=4 ismMode=0 IWM-> 00
[rbk] READ reg=12 ismMode=0 IWM-> 00
[rbk] READ reg=4 ismMode=0 IWM-> 00
[rbk] READ reg=12 ismMode=0 IWM-> 00
[rbk] READ reg=4 ismMode=0 IWM-> 00
[rbk] READ reg=12 ismMode=0 IWM-> 00
[rbk] READ reg=4 ismMode=0 IWM-> 00
[rbk] READ reg=12 ismMode=0 IWM-> 00
[rbk] READ reg=4 ismMode=0 IWM-> 00
[rbk] READ reg=12 ismMode=0 IWM-> 00
[rbk] READ reg=4 ismMode=0 IWM-> 00
[rbk] READ reg=12 ismMode=0 IWM-> 00
[rbk] READ reg=4 ismMode=0 IWM-> 00
[rbk] READ reg=12 ismMode=0 IWM-> 00
[rbk] READ reg=4 ismMode=0 IWM-> 00
[rbk] READ reg=12 ismMode=0 IWM-> 00
[rbk] READ reg=4 ismMode=0 IWM-> 00
[rbk] READ reg=12 ismMode=0 IWM-> 00
[rbk] READ reg=4 ismMode=0 IWM-> 00
[rbk] READ reg=12 ismMode=0 IWM-> 00
[rbk] READ reg=4 ismMode=0 IWM-> 00
[rbk] READ reg=12 ismMode=0 IWM-> 00
[rbk] READ reg=4 ismMode=0 IWM-> 00
[rbk] READ reg=12 ismMode=0 IWM-> 00
[rbk] READ reg=4 ismMode=0 IWM-> 00
[rbk] READ reg=12 ismMode=0 IWM-> 00
[rbk] READ reg=4 ismMode=0 IWM-> 00
[rbk] READ reg=12 ismMode=0 IWM-> 00
[rbk] READ reg=4 ismMode=0 IWM-> 00
[rbk] READ reg=12 ismMode=0 IWM-> 00
[rbk] READ reg=4 ismMode=0 IWM-> 00
[rbk] READ reg=12 ismMode=0 IWM-> 00
[rbk] READ reg=4 ismMode=0 IWM-> 00
[rbk] READ reg=12 ismMode=0 IWM-> 00
[rbk] READ reg=4 ismMode=0 IWM-> 00
[rbk] READ reg=12 ismMode=0 IWM-> 00
[rbk] READ reg=4 ismMode=0 IWM-> 00
[rbk] READ reg=12 ismMode=0 IWM-> 00
[rbk] READ reg=4 ismMode=0 IWM-> 00
[rbk] READ reg=12 ismMode=0 IWM-> 00
[rbk] READ reg=4 ismMode=0 IWM-> 00
[rbk] READ reg=12 ismMode=0 IWM-> 00
[rbk] READ reg=4 ismMode=0 IWM-> 00
[rbk] READ reg=12 ismMode=0 IWM-> 00
[rbk] READ reg=4 ismMode=0 IWM-> 00
[rbk] READ reg=12 ismMode=0 IWM-> 00
[rbk] READ reg=4 ismMode=0 IWM-> 00
[rbk] READ reg=12 ismMode=0 IWM-> 00
[rbk] READ reg=4 ismMode=0 IWM-> 00
[rbk] READ reg=12 ismMode=0 IWM-> 00
[rbk] READ reg=4 ismMode=0 IWM-> 00
[rbk] READ reg=12 ismMode=0 IWM-> 00
[rbk] READ reg=4 ismMode=0 IWM-> 00
[rbk] READ reg=12 ismMode=0 IWM-> 00
[rbk] READ reg=4 ismMode=0 IWM-> 00
[rbk] READ reg=12 ismMode=0 IWM-> 00
[rbk] READ reg=4 ismMode=0 IWM-> 00
[rbk] READ reg=12 ismMode=0 IWM-> 00
[rbk] READ reg=4 ismMode=0 IWM-> 00
[rbk] READ reg=12 ismMode=0 IWM-> 00
[rbk] READ reg=4 ismMode=0 IWM-> 00
[rbk] READ reg=12 ismMode=0 IWM-> 00
[rbk] READ reg=4 ismMode=0 IWM-> 00
[rbk] READ reg=12 ismMode=0 IWM-> 00
[rbk] READ reg=4 ismMode=0 IWM-> 00
[rbk] READ reg=12 ismMode=0 IWM-> 00
[rbk] READ reg=4 ismMode=0 IWM-> 00
[rbk] READ reg=12 ismMode=0 IWM-> 00
[rbk] READ reg=4 ismMode=0 IWM-> 00
[rbk] READ reg=12 ismMode=0 IWM-> 00
[rbk] READ reg=4 ismMode=0 IWM-> 00
[rbk] READ reg=12 ismMode=0 IWM-> 00
[rbk] READ reg=4 ismMode=0 IWM-> 00
[rbk] READ reg=12 ismMode=0 IWM-> 00
[rbk] READ reg=4 ismMode=0 IWM-> 00
[rbk] READ reg=12 ismMode=0 IWM-> 00
[rbk] READ reg=4 ismMode=0 IWM-> 00
[rbk] READ reg=12 ismMode=0 IWM-> 00
[rbk] READ reg=4 ismMode=0 IWM-> 00
[rbk] READ reg=12 ismMode=0 IWM-> 00
[rbk] READ reg=4 ismMode=0 IWM-> 00
[rbk] READ reg=12 ismMode=0 IWM-> 00
[rbk] READ reg=4 ismMode=0 IWM-> 00
[rbk] READ reg=12 ismMode=0 IWM-> 00
[rbk] READ reg=4 ismMode=0 IWM-> 00
[rbk] READ reg=12 ismMode=0 IWM-> 00
[rbk] READ reg=4 ismMode=0 IWM-> 00
[rbk] READ reg=12 ismMode=0 IWM-> 00
[rbk] READ reg=4 ismMode=0 IWM-> 00
[rbk] READ reg=12 ismMode=0 IWM-> 00
[rbk] READ reg=4 ismMode=0 IWM-> 00
[rbk] READ reg=12 ismMode=0 IWM-> 00
[rbk] READ reg=4 ismMode=0 IWM-> 00
[rbk] READ reg=12 ismMode=0 IWM-> 00
[rbk] READ reg=4 ismMode=0 IWM-> 00
[rbk] READ reg=12 ismMode=0 IWM-> 00
[rbk] READ reg=4 ismMode=0 IWM-> 00
[rbk] READ reg=12 ismMode=0 IWM-> 00
[rbk] READ reg=4 ismMode=0 IWM-> 00
[rbk] READ reg=12 ismMode=0 IWM-> 00
[rbk] READ reg=4 ismMode=0 IWM-> 00
[rbk] READ reg=12 ismMode=0 IWM-> 00
[rbk] READ reg=4 ismMode=0 IWM-> 00
[rbk] READ reg=12 ismMode=0 IWM-> 00
[rbk] READ reg=4 ismMode=0 IWM-> 00
[rbk] READ reg=12 ismMode=0 IWM-> 00
[rbk] READ reg=4 ismMode=0 IWM-> 00
[rbk] READ reg=12 ismMode=0 IWM-> 00
[rbk] READ reg=4 ismMode=0 IWM-> 00
[rbk] READ reg=12 ismMode=0 IWM-> 00
[rbk] READ reg=4 ismMode=0 IWM-> 00
[rbk] READ reg=12 ismMode=0 IWM-> 00
[rbk] READ reg=4 ismMode=0 IWM-> 00
[rbk] READ reg=12 ismMode=0 IWM-> 00
[rbk] READ reg=4 ismMode=0 IWM-> 00
[rbk] READ reg=12 ismMode=0 IWM-> 00
[rbk] READ reg=4 ismMode=0 IWM-> 00
[rbk] READ reg=12 ismMode=0 IWM-> 00
[rbk] READ reg=4 ismMode=0 IWM-> 00
[rbk] READ reg=12 ismMode=0 IWM-> 00
[rbk] READ reg=4 ismMode=0 IWM-> 00
[rbk] READ reg=12 ismMode=0 IWM-> 00
[rbk] READ reg=4 ismMode=0 IWM-> 00
[rbk] READ reg=12 ismMode=0 IWM-> 00
[rbk] READ reg=4 ismMode=0 IWM-> 00
[rbk] READ reg=12 ismMode=0 IWM-> 00
[rbk] READ reg=4 ismMode=0 IWM-> 00
[rbk] READ reg=12 ismMode=0 IWM-> 00
[rbk] READ reg=4 ismMode=0 IWM-> 00
[rbk] READ reg=12 ismMode=0 IWM-> 00
[rbk] READ reg=4 ismMode=0 IWM-> 00
[rbk] READ reg=12 ismMode=0 IWM-> 00
[rbk] READ reg=4 ismMode=0 IWM-> 00
[rbk] READ reg=12 ismMode=0 IWM-> 00
[rbk] READ reg=4 ismMode=0 IWM-> 00
[rbk] READ reg=12 ismMode=0 IWM-> 00
[rbk] READ reg=4 ismMode=0 IWM-> 00
[rbk] READ reg=12 ismMode=0 IWM-> 00
[rbk] READ reg=4 ismMode=0 IWM-> 00
[rbk] READ reg=12 ismMode=0 IWM-> 00
[rbk] READ reg=4 ismMode=0 IWM-> 00
[rbk] READ reg=12 ismMode=0 IWM-> 00
[rbk] READ reg=4 ismMode=0 IWM-> 00
[rbk] READ reg=12 ismMode=0 IWM-> 00
[rbk] READ reg=4 ismMode=0 IWM-> 00
[rbk] READ reg=12 ismMode=0 IWM-> 00
[rbk] READ reg=4 ismMode=0 IWM-> 00
[rbk] READ reg=12 ismMode=0 IWM-> 00
[rbk] READ reg=4 ismMode=0 IWM-> 00
[rbk] READ reg=12 ismMode=0 IWM-> 00
[rbk] READ reg=4 ismMode=0 IWM-> 00
[rbk] READ reg=12 ismMode=0 IWM-> 00
[rbk] READ reg=4 ismMode=0 IWM-> 00
[rbk] READ reg=12 ismMode=0 IWM-> 00
[rbk] READ reg=4 ismMode=0 IWM-> 00
[rbk] READ reg=12 ismMode=0 IWM-> 00
[rbk] READ reg=4 ismMode=0 IWM-> 00
[rbk] READ reg=12 ismMode=0 IWM-> 00
[rbk] READ reg=4 ismMode=0 IWM-> 00
[rbk] READ reg=12 ismMode=0 IWM-> 00
[rbk] READ reg=4 ismMode=0 IWM-> 00
[rbk] READ reg=12 ismMode=0 IWM-> 00
[rbk] READ reg=4 ismMode=0 IWM-> 00
[rbk] READ reg=12 ismMode=0 IWM-> 00
[rbk] READ reg=4 ismMode=0 IWM-> 00
[rbk] READ reg=12 ismMode=0 IWM-> 00
[rbk] READ reg=4 ismMode=0 IWM-> 00
[rbk] READ reg=12 ismMode=0 IWM-> 00
[rbk] READ reg=4 ismMode=0 IWM-> 00
[rbk] READ reg=12 ismMode=0 IWM-> 00
[rbk] READ reg=4 ismMode=0 IWM-> 00
[rbk] READ reg=12 ismMode=0 IWM-> 00
[rbk] READ reg=4 ismMode=0 IWM-> 00
[rbk] READ reg=12 ismMode=0 IWM-> 00
[rbk] READ reg=4 ismMode=0 IWM-> 00
